f (Hz)	df (Hz)	Vin (mV)	dVin (mV)	Vout (mV)	dVout (mV)	phase (degrees)	dphase (degrees)	gain	dgain 
35232.1	1	187.4	0.1	1086	1	83	0.1	5.795090715	0.006167457
35000	1	187.7	0.1	1082	1	78	0.1	5.764517848	0.006149449
35100	1	187.5	0.1	1084	5	80	0.1	5.781333333	0.026844335
34900	1	187.7	0.1	1079	1	77	0.1	5.748534896	0.006145201
34800	1	187.9	0.1	1075	1	75	0.1	5.72112826	0.006131404
34700	1	188	0.1	1069	1	73	0.1	5.686170213	0.00611893
34600	1	188.1	0.1	1063	1	72	0.1	5.651249335	0.006106521
34500	1	188.4	0.1	1055	1	70	0.1	5.599787686	0.006083405
34400	1	188.5	0.1	1049	1	69	0.1	5.564986737	0.006071179
34300	1	188.8	0.1	1040	1	66	0.1	5.508474576	0.006047033
34200	1	189.1	0.1	1031	1	64	0.1	5.452141724	0.006023123
34100	1	189.4	0.1	1023	1	63	0.1	5.401267159	0.006000771
34000	1	189.7	0.1	1012	1	61	0.1	5.334739062	0.005974694
33500	1	191.1	0.1	957	1	54	0.1	5.007849294	0.005852356
33000	1	192.5	0.1	897	1	48	0.1	4.65974026	0.005731101
32500	1	193.7	0.1	837	1	42	0.1	4.321115126	0.00562399
32000	1	194.7	0.1	781	1	38	0.1	4.011299435	0.005533914
31500	1	195.7	0.1	729	1	34	0.1	3.725089423	0.005452879
31000	1	196.5	0.1	683	1	31	0.1	3.475826972	0.005387709
30500	1	197	0.1	640	1	28	0.1	3.248730964	0.005337299
30000	1	197.3	0.1	601	1	26	0.1	3.046122656	0.005298354
29500	1	197.6	0.1	567	1	24	0.1	2.869433198	0.005264949
29000	1	197.8	0.1	537	1	22	0.1	2.714863498	0.005238611
28500	1	198.2	0.1	509	1	20.3	0.1	2.568113017	0.00520913
28000	1	198.5	0.1	485	1	19	0.1	2.443324937	0.005185977
27000	1	199	0.1	444	1	16.2	0.1	2.231155779	0.005148683
26000	1	199.4	0.1	408	1	14.7	0.1	2.046138415	0.005118951
25000	1	199.6	0.1	378	1	13	0.1	1.893787575	0.005099069
24000	1	199.6	0.1	355	1	11.6	0.1	1.778557114	0.005088643
23000	1	199.7	0.1	333	1	10.1	0.1	1.667501252	0.005076652
22000	1	199.8	0.1	316	1	9.4	0.1	1.581581582	0.005067216
21000	1	199.8	0.1	301	1	8.5	0.1	1.506506507	0.005061482
20000	1	199.9	0.1	288	1	7.6	0.1	1.44072036	0.005054152
18000	1	199.9	0.1	264	1	6.2	0.1	1.32066033	0.005045938
16000	1	199.9	0.1	248	1	5	0.1	1.24062031	0.005040852
14000	1	200	0.1	235	1	4.2	0.1	1.175	0.005034397
12000	1	200.1	0.1	224	1	3.5	0.1	1.11944028	0.005028717
10000	1	200.1	0.1	217	1	2.8	0.1	1.084457771	0.005026802
8000	1	200.2	0.1	209	1	2.3	0.1	1.043956044	0.00502215
5000	1	200.2	0.1	203	1	1	0.1	1.013986014	0.005020618
2000	1	200.2	0.1	200	1	0.9	0.1	0.999000999	0.005019868
500	1	200.3	0.1	200	1	0.6	0.1	0.998502247	0.005017337
33700	1	190.8	0.1	978	1	56.3	0.1	5.125786164	0.005889495
35300	1	187.3	0.1	1087	1	83.7	0.1	5.803523759	0.006173009
35400	1	187.2	0.1	1086	1	85.4	0.1	5.801282051	0.006175705
35500	1	187.2	0.1	1084	1	87.3	0.1	5.790598291	0.006172843
35600	1	187.3	0.1	1083	1	89.2	0.1	5.782167645	0.006167293
35700	1	187.4	0.1	1080	1	91.1	0.1	5.763073639	0.006158908
35800	1	187.3	0.1	1075	1	93.2	0.1	5.739455419	0.00615591
35900	1	187.3	0.1	1069	1	94.5	0.1	5.707421249	0.006147414
36000	1	187.4	0.1	1063	1	96.8	0.1	5.672358591	0.006134881
36100	1	187.5	0.1	1055	1	98	0.1	5.626666667	0.006119622
36200	1	187.6	0.1	1048	1	100.3	0.1	5.586353945	0.006105852
36300	1	187.7	0.1	1040	1	101.6	0.1	5.540756526	0.006090788
36400	1	187.8	0.1	1030	1	103.8	0.1	5.48455804	0.006073098
36500	1	187.9	0.1	1021	1	105.6	0.1	5.433741352	0.006056907
37000	1	188.8	0.1	964	1	113.2	0.1	5.105932203	0.005947094
37500	1	190.2	0.1	898	1	119.9	0.1	4.721345952	0.005814159
38000	1	191.2	0.1	833	1	126.1	0.1	4.356694561	0.005704933
38500	1	192.4	0.1	770	1	131.3	0.1	4.002079002	0.005598286
39000	1	193.5	0.1	712	1	135.7	0.1	3.679586563	0.005506711
39500	1	194.3	0.1	657	1	140	0.1	3.381369017	0.005432946
40000	1	195	0.1	607	1	143.6	0.1	3.112820513	0.005370914
40500	1	195.7	0.1	561	1	145.5	0.1	2.866632601	0.005315671
41000	1	196.4	0.1	521	1	148.1	0.1	2.652749491	0.005267756
41500	1	196.8	0.1	487	1	150.1	0.1	2.474593496	0.005234569
42000	1	197.1	0.1	455	1	151.9	0.1	2.308472856	0.005206999
43000	1	197.5	0.1	399	1	155	0.1	2.020253165	0.005165585
44000	1	197.9	0.1	354	1	158	0.1	1.788782213	0.005133263
45000	1	198.3	0.1	316	1	159	0.1	1.593545134	0.005106492
46000	1	198.7	0.1	286	1	161	0.1	1.439355813	0.005084578
47000	1	199	0.1	260	1	163	0.1	1.306532663	0.005067834
48000	1	199.1	0.1	236	1	164	0.1	1.185334003	0.005057763
50000	1	199.4	0.1	200	1	166	0.1	1.003009027	0.005040208
52000	1	199.6	0.1	173	1	167	0.1	0.866733467	0.005028803
54000	1	199.6	0.1	150	1	168	0.1	0.751503006	0.005024147
56000	1	199.7	0.1	133	1	169	0.1	0.665998998	0.005018605
58000	1	199.7	0.1	119	1	170	0.1	0.595893841	0.005016394
60000	1	199.8	0.1	107	1	171	0.1	0.535535536	0.005012177
65000	1	199.9	0.1	83	1	173	0.1	0.415207604	0.005006811
70000	1	199.9	0.1	67	1	173	0.1	0.335167584	0.00500531
75000	1	199.9	0.1	56	1	174	0.1	0.28014007	0.005004464
80000	1	199.9	0.1	48	1	174	0.1	0.24012006	0.005003943
85000	1	199.9	0.1	40	1	175	0.1	0.20010005	0.005003503
90000	1	199	0.1	40	1	176	0.1	0.201005025	0.005026141
100000	1	200.1	0.1	27	1	177	0.1	0.134932534	0.004997956
62500	1	199.9	0.1	94	1	171.5	0.1	0.470235118	0.005008029
95000	1	200.1	0.1	31	1	176	0.1	0.154922539	0.004998101
